Sample in Buffer,Sample in Window,TRIGGER,data_out_probe_in[7:0],cnt_out_addr_in[7:0]
0,0,0,7f,ff
1,1,0,8c,04
2,2,0,9c,09
3,3,0,ab,0e
4,4,0,b9,13
5,5,0,c7,18
6,6,0,d3,1d
7,7,0,df,22
8,8,0,e8,27
9,9,0,f1,2c
10,10,0,f7,31
11,11,0,fc,36
12,12,0,ff,3b
13,13,0,ff,40
14,14,0,fe,45
15,15,0,fb,4a
16,16,0,f7,4f
17,17,0,f0,54
18,18,0,e8,59
19,19,0,de,5e
20,20,0,d2,63
21,21,0,c6,68
22,22,0,b8,6d
23,23,0,a9,72
24,24,0,9a,77
25,25,0,8b,7c
26,26,0,7b,81
27,27,0,6b,86
28,28,0,5c,8b
29,29,0,4d,90
30,30,0,3f,95
31,31,0,32,9a
32,32,0,26,9f
33,33,0,1b,a4
34,34,0,12,a9
35,35,0,0b,ae
36,36,0,05,b3
37,37,0,02,b8
38,38,0,00,bd
39,39,0,00,c2
40,40,0,02,c7
41,41,0,06,cc
42,42,0,0c,d1
43,43,0,13,d6
44,44,0,1c,db
45,45,0,27,e0
46,46,0,33,e5
47,47,0,40,ea
48,48,0,4e,ef
49,49,0,5d,f4
50,50,0,6d,f9
51,51,0,7c,fe
52,52,0,89,03
53,53,0,99,08
54,54,0,a8,0d
55,55,0,b6,12
56,56,0,c4,17
57,57,0,d1,1c
58,58,0,dc,21
59,59,0,e7,26
60,60,0,ef,2b
61,61,0,f6,30
62,62,0,fb,35
63,63,0,fe,3a
64,64,0,ff,3f
65,65,0,ff,44
66,66,0,fc,49
67,67,0,f8,4e
68,68,0,f1,53
69,69,0,e9,58
70,70,0,e0,5d
71,71,0,d5,62
72,72,0,c8,67
73,73,0,bb,6c
74,74,0,ac,71
75,75,0,9d,76
76,76,0,8e,7b
77,77,0,7e,80
78,78,0,6e,85
79,79,0,5f,8a
80,80,0,50,8f
81,81,0,42,94
82,82,0,34,99
83,83,0,28,9e
84,84,0,1d,a3
85,85,0,14,a8
86,86,0,0c,ad
87,87,0,06,b2
88,88,0,02,b7
89,89,0,00,bc
90,90,0,00,c1
91,91,0,01,c6
92,92,0,05,cb
93,93,0,0a,d0
94,94,0,11,d5
95,95,0,1a,da
96,96,0,25,df
97,97,0,30,e4
98,98,0,3d,e9
99,99,0,4b,ee
100,100,0,5a,f3
101,101,0,6a,f8
102,102,0,79,fd
103,103,0,86,02
104,104,0,95,07
105,105,0,a5,0c
106,106,0,b4,11
107,107,0,c2,16
108,108,0,cf,1b
109,109,0,da,20
110,110,0,e5,25
111,111,0,ee,2a
112,112,0,f5,2f
113,113,0,fa,34
114,114,0,fe,39
115,115,0,ff,3e
116,116,0,ff,43
117,117,0,fd,48
118,118,0,f9,4d
119,119,0,f3,52
120,120,0,eb,57
121,121,0,e2,5c
122,122,0,d7,61
123,123,0,cb,66
124,124,0,bd,6b
125,125,0,af,70
126,126,0,a0,75
127,127,0,91,7a
128,128,0,81,7f
129,129,0,71,84
130,130,0,62,89
131,131,0,53,8e
132,132,0,44,93
133,133,0,37,98
134,134,0,2a,9d
135,135,0,1f,a2
136,136,0,16,a7
137,137,0,0e,ac
138,138,0,07,b1
139,139,0,03,b6
140,140,0,00,bb
141,141,0,00,c0
142,142,0,01,c5
143,143,0,04,ca
144,144,0,09,cf
145,145,0,10,d4
146,146,0,18,d9
147,147,0,23,de
148,148,0,2e,e3
149,149,0,3b,e8
150,150,0,49,ed
151,151,0,57,f2
152,152,0,66,f7
153,153,0,76,fc
154,154,0,83,01
155,155,0,92,06
156,156,0,a2,0b
157,157,0,b1,10
158,158,0,bf,15
159,159,0,cc,1a
160,160,0,d8,1f
161,161,0,e3,24
162,162,0,ec,29
163,163,0,f3,2e
164,164,0,f9,33
165,165,0,fd,38
166,166,0,ff,3d
167,167,0,ff,42
168,168,0,fd,47
169,169,0,fa,4c
170,170,0,f4,51
171,171,0,ed,56
172,172,0,e4,5b
173,173,0,d9,60
174,174,0,cd,65
175,175,0,c0,6a
176,176,0,b2,6f
177,177,0,a3,74
178,178,0,94,79
179,179,0,84,7e
180,180,0,74,83
181,181,0,65,88
182,182,0,56,8d
183,183,0,47,92
184,184,0,39,97
185,185,0,2d,9c
186,186,0,21,a1
187,187,0,17,a6
188,188,0,0f,ab
189,189,0,08,b0
190,190,0,04,b5
191,191,0,01,ba
192,192,0,00,bf
193,193,0,00,c4
194,194,0,03,c9
195,195,0,08,ce
196,196,0,0e,d3
197,197,0,17,d8
198,198,0,20,dd
199,199,0,2c,e2
200,200,0,38,e7
201,201,0,46,ec
202,202,0,54,f1
203,203,0,63,f6
204,204,0,73,fb
205,205,0,7f,00
206,206,0,8f,05
207,207,0,9f,0a
208,208,0,ae,0f
209,209,0,bc,14
210,210,0,c9,19
211,211,0,d6,1e
212,212,0,e1,23
213,213,0,ea,28
214,214,0,f2,2d
215,215,0,f8,32
216,216,0,fd,37
217,217,0,ff,3c
218,218,0,ff,41
219,219,0,fe,46
220,220,0,fb,4b
221,221,0,f5,50
222,222,0,ee,55
223,223,0,e6,5a
224,224,0,db,5f
225,225,0,d0,64
226,226,0,c3,69
227,227,0,b5,6e
228,228,0,a6,73
229,229,0,97,78
230,230,0,87,7d
231,231,0,78,82
232,232,0,68,87
233,233,0,59,8c
234,234,0,4a,91
235,235,0,3c,96
236,236,0,2f,9b
237,237,0,24,a0
238,238,0,19,a5
239,239,0,11,aa
240,240,0,0a,af
241,241,0,04,b4
242,242,0,01,b9
243,243,0,00,be
244,244,0,00,c3
245,245,0,02,c8
246,246,0,07,cd
247,247,0,0d,d2
248,248,0,15,d7
249,249,0,1e,dc
250,250,0,29,e1
251,251,0,36,e6
252,252,0,43,eb
253,253,0,51,f0
254,254,0,60,f5
255,255,0,70,fa
256,256,0,7f,ff
257,257,0,8c,04
258,258,0,9c,09
259,259,0,ab,0e
260,260,0,b9,13
261,261,0,c7,18
262,262,0,d3,1d
263,263,0,df,22
264,264,0,e8,27
265,265,0,f1,2c
266,266,0,f7,31
267,267,0,fc,36
268,268,0,ff,3b
269,269,0,ff,40
270,270,0,fe,45
271,271,0,fb,4a
272,272,0,f7,4f
273,273,0,f0,54
274,274,0,e8,59
275,275,0,de,5e
276,276,0,d2,63
277,277,0,c6,68
278,278,0,b8,6d
279,279,0,a9,72
280,280,0,9a,77
281,281,0,8b,7c
282,282,0,7b,81
283,283,0,6b,86
284,284,0,5c,8b
285,285,0,4d,90
286,286,0,3f,95
287,287,0,32,9a
288,288,0,26,9f
289,289,0,1b,a4
290,290,0,12,a9
291,291,0,0b,ae
292,292,0,05,b3
293,293,0,02,b8
294,294,0,00,bd
295,295,0,00,c2
296,296,0,02,c7
297,297,0,06,cc
298,298,0,0c,d1
299,299,0,13,d6
300,300,0,1c,db
301,301,0,27,e0
302,302,0,33,e5
303,303,0,40,ea
304,304,0,4e,ef
305,305,0,5d,f4
306,306,0,6d,f9
307,307,0,7c,fe
308,308,0,89,03
309,309,0,99,08
310,310,0,a8,0d
311,311,0,b6,12
312,312,0,c4,17
313,313,0,d1,1c
314,314,0,dc,21
315,315,0,e7,26
316,316,0,ef,2b
317,317,0,f6,30
318,318,0,fb,35
319,319,0,fe,3a
320,320,0,ff,3f
321,321,0,ff,44
322,322,0,fc,49
323,323,0,f8,4e
324,324,0,f1,53
325,325,0,e9,58
326,326,0,e0,5d
327,327,0,d5,62
328,328,0,c8,67
329,329,0,bb,6c
330,330,0,ac,71
331,331,0,9d,76
332,332,0,8e,7b
333,333,0,7e,80
334,334,0,6e,85
335,335,0,5f,8a
336,336,0,50,8f
337,337,0,42,94
338,338,0,34,99
339,339,0,28,9e
340,340,0,1d,a3
341,341,0,14,a8
342,342,0,0c,ad
343,343,0,06,b2
344,344,0,02,b7
345,345,0,00,bc
346,346,0,00,c1
347,347,0,01,c6
348,348,0,05,cb
349,349,0,0a,d0
350,350,0,11,d5
351,351,0,1a,da
352,352,0,25,df
353,353,0,30,e4
354,354,0,3d,e9
355,355,0,4b,ee
356,356,0,5a,f3
357,357,0,6a,f8
358,358,0,79,fd
359,359,0,86,02
360,360,0,95,07
361,361,0,a5,0c
362,362,0,b4,11
363,363,0,c2,16
364,364,0,cf,1b
365,365,0,da,20
366,366,0,e5,25
367,367,0,ee,2a
368,368,0,f5,2f
369,369,0,fa,34
370,370,0,fe,39
371,371,0,ff,3e
372,372,0,ff,43
373,373,0,fd,48
374,374,0,f9,4d
375,375,0,f3,52
376,376,0,eb,57
377,377,0,e2,5c
378,378,0,d7,61
379,379,0,cb,66
380,380,0,bd,6b
381,381,0,af,70
382,382,0,a0,75
383,383,0,91,7a
384,384,0,81,7f
385,385,0,71,84
386,386,0,62,89
387,387,0,53,8e
388,388,0,44,93
389,389,0,37,98
390,390,0,2a,9d
391,391,0,1f,a2
392,392,0,16,a7
393,393,0,0e,ac
394,394,0,07,b1
395,395,0,03,b6
396,396,0,00,bb
397,397,0,00,c0
398,398,0,01,c5
399,399,0,04,ca
400,400,0,09,cf
401,401,0,10,d4
402,402,0,18,d9
403,403,0,23,de
404,404,0,2e,e3
405,405,0,3b,e8
406,406,0,49,ed
407,407,0,57,f2
408,408,0,66,f7
409,409,0,76,fc
410,410,0,83,01
411,411,0,92,06
412,412,0,a2,0b
413,413,0,b1,10
414,414,0,bf,15
415,415,0,cc,1a
416,416,0,d8,1f
417,417,0,e3,24
418,418,0,ec,29
419,419,0,f3,2e
420,420,0,f9,33
421,421,0,fd,38
422,422,0,ff,3d
423,423,0,ff,42
424,424,0,fd,47
425,425,0,fa,4c
426,426,0,f4,51
427,427,0,ed,56
428,428,0,e4,5b
429,429,0,d9,60
430,430,0,cd,65
431,431,0,c0,6a
432,432,0,b2,6f
433,433,0,a3,74
434,434,0,94,79
435,435,0,84,7e
436,436,0,74,83
437,437,0,65,88
438,438,0,56,8d
439,439,0,47,92
440,440,0,39,97
441,441,0,2d,9c
442,442,0,21,a1
443,443,0,17,a6
444,444,0,0f,ab
445,445,0,08,b0
446,446,0,04,b5
447,447,0,01,ba
448,448,0,00,bf
449,449,0,00,c4
450,450,0,03,c9
451,451,0,08,ce
452,452,0,0e,d3
453,453,0,17,d8
454,454,0,20,dd
455,455,0,2c,e2
456,456,0,38,e7
457,457,0,46,ec
458,458,0,54,f1
459,459,0,63,f6
460,460,0,73,fb
461,461,0,7f,00
462,462,0,8f,05
463,463,0,9f,0a
464,464,0,ae,0f
465,465,0,bc,14
466,466,0,c9,19
467,467,0,d6,1e
468,468,0,e1,23
469,469,0,ea,28
470,470,0,f2,2d
471,471,0,f8,32
472,472,0,fd,37
473,473,0,ff,3c
474,474,0,ff,41
475,475,0,fe,46
476,476,0,fb,4b
477,477,0,f5,50
478,478,0,ee,55
479,479,0,e6,5a
480,480,0,db,5f
481,481,0,d0,64
482,482,0,c3,69
483,483,0,b5,6e
484,484,0,a6,73
485,485,0,97,78
486,486,0,87,7d
487,487,0,78,82
488,488,0,68,87
489,489,0,59,8c
490,490,0,4a,91
491,491,0,3c,96
492,492,0,2f,9b
493,493,0,24,a0
494,494,0,19,a5
495,495,0,11,aa
496,496,0,0a,af
497,497,0,04,b4
498,498,0,01,b9
499,499,0,00,be
500,500,0,00,c3
501,501,0,02,c8
502,502,0,07,cd
503,503,0,0d,d2
504,504,0,15,d7
505,505,0,1e,dc
506,506,0,29,e1
507,507,0,36,e6
508,508,0,43,eb
509,509,0,51,f0
510,510,0,60,f5
511,511,0,70,fa
512,512,1,7f,ff
513,513,0,8c,04
514,514,0,9c,09
515,515,0,ab,0e
516,516,0,b9,13
517,517,0,c7,18
518,518,0,d3,1d
519,519,0,df,22
520,520,0,e8,27
521,521,0,f1,2c
522,522,0,f7,31
523,523,0,fc,36
524,524,0,ff,3b
525,525,0,ff,40
526,526,0,fe,45
527,527,0,fb,4a
528,528,0,f7,4f
529,529,0,f0,54
530,530,0,e8,59
531,531,0,de,5e
532,532,0,d2,63
533,533,0,c6,68
534,534,0,b8,6d
535,535,0,a9,72
536,536,0,9a,77
537,537,0,8b,7c
538,538,0,7b,81
539,539,0,6b,86
540,540,0,5c,8b
541,541,0,4d,90
542,542,0,3f,95
543,543,0,32,9a
544,544,0,26,9f
545,545,0,1b,a4
546,546,0,12,a9
547,547,0,0b,ae
548,548,0,05,b3
549,549,0,02,b8
550,550,0,00,bd
551,551,0,00,c2
552,552,0,02,c7
553,553,0,06,cc
554,554,0,0c,d1
555,555,0,13,d6
556,556,0,1c,db
557,557,0,27,e0
558,558,0,33,e5
559,559,0,40,ea
560,560,0,4e,ef
561,561,0,5d,f4
562,562,0,6d,f9
563,563,0,7c,fe
564,564,0,89,03
565,565,0,99,08
566,566,0,a8,0d
567,567,0,b6,12
568,568,0,c4,17
569,569,0,d1,1c
570,570,0,dc,21
571,571,0,e7,26
572,572,0,ef,2b
573,573,0,f6,30
574,574,0,fb,35
575,575,0,fe,3a
576,576,0,ff,3f
577,577,0,ff,44
578,578,0,fc,49
579,579,0,f8,4e
580,580,0,f1,53
581,581,0,e9,58
582,582,0,e0,5d
583,583,0,d5,62
584,584,0,c8,67
585,585,0,bb,6c
586,586,0,ac,71
587,587,0,9d,76
588,588,0,8e,7b
589,589,0,7e,80
590,590,0,6e,85
591,591,0,5f,8a
592,592,0,50,8f
593,593,0,42,94
594,594,0,34,99
595,595,0,28,9e
596,596,0,1d,a3
597,597,0,14,a8
598,598,0,0c,ad
599,599,0,06,b2
600,600,0,02,b7
601,601,0,00,bc
602,602,0,00,c1
603,603,0,01,c6
604,604,0,05,cb
605,605,0,0a,d0
606,606,0,11,d5
607,607,0,1a,da
608,608,0,25,df
609,609,0,30,e4
610,610,0,3d,e9
611,611,0,4b,ee
612,612,0,5a,f3
613,613,0,6a,f8
614,614,0,79,fd
615,615,0,86,02
616,616,0,95,07
617,617,0,a5,0c
618,618,0,b4,11
619,619,0,c2,16
620,620,0,cf,1b
621,621,0,da,20
622,622,0,e5,25
623,623,0,ee,2a
624,624,0,f5,2f
625,625,0,fa,34
626,626,0,fe,39
627,627,0,ff,3e
628,628,0,ff,43
629,629,0,fd,48
630,630,0,f9,4d
631,631,0,f3,52
632,632,0,eb,57
633,633,0,e2,5c
634,634,0,d7,61
635,635,0,cb,66
636,636,0,bd,6b
637,637,0,af,70
638,638,0,a0,75
639,639,0,91,7a
640,640,0,81,7f
641,641,0,71,84
642,642,0,62,89
643,643,0,53,8e
644,644,0,44,93
645,645,0,37,98
646,646,0,2a,9d
647,647,0,1f,a2
648,648,0,16,a7
649,649,0,0e,ac
650,650,0,07,b1
651,651,0,03,b6
652,652,0,00,bb
653,653,0,00,c0
654,654,0,01,c5
655,655,0,04,ca
656,656,0,09,cf
657,657,0,10,d4
658,658,0,18,d9
659,659,0,23,de
660,660,0,2e,e3
661,661,0,3b,e8
662,662,0,49,ed
663,663,0,57,f2
664,664,0,66,f7
665,665,0,76,fc
666,666,0,83,01
667,667,0,92,06
668,668,0,a2,0b
669,669,0,b1,10
670,670,0,bf,15
671,671,0,cc,1a
672,672,0,d8,1f
673,673,0,e3,24
674,674,0,ec,29
675,675,0,f3,2e
676,676,0,f9,33
677,677,0,fd,38
678,678,0,ff,3d
679,679,0,ff,42
680,680,0,fd,47
681,681,0,fa,4c
682,682,0,f4,51
683,683,0,ed,56
684,684,0,e4,5b
685,685,0,d9,60
686,686,0,cd,65
687,687,0,c0,6a
688,688,0,b2,6f
689,689,0,a3,74
690,690,0,94,79
691,691,0,84,7e
692,692,0,74,83
693,693,0,65,88
694,694,0,56,8d
695,695,0,47,92
696,696,0,39,97
697,697,0,2d,9c
698,698,0,21,a1
699,699,0,17,a6
700,700,0,0f,ab
701,701,0,08,b0
702,702,0,04,b5
703,703,0,01,ba
704,704,0,00,bf
705,705,0,00,c4
706,706,0,03,c9
707,707,0,08,ce
708,708,0,0e,d3
709,709,0,17,d8
710,710,0,20,dd
711,711,0,2c,e2
712,712,0,38,e7
713,713,0,46,ec
714,714,0,54,f1
715,715,0,63,f6
716,716,0,73,fb
717,717,0,7f,00
718,718,0,8f,05
719,719,0,9f,0a
720,720,0,ae,0f
721,721,0,bc,14
722,722,0,c9,19
723,723,0,d6,1e
724,724,0,e1,23
725,725,0,ea,28
726,726,0,f2,2d
727,727,0,f8,32
728,728,0,fd,37
729,729,0,ff,3c
730,730,0,ff,41
731,731,0,fe,46
732,732,0,fb,4b
733,733,0,f5,50
734,734,0,ee,55
735,735,0,e6,5a
736,736,0,db,5f
737,737,0,d0,64
738,738,0,c3,69
739,739,0,b5,6e
740,740,0,a6,73
741,741,0,97,78
742,742,0,87,7d
743,743,0,78,82
744,744,0,68,87
745,745,0,59,8c
746,746,0,4a,91
747,747,0,3c,96
748,748,0,2f,9b
749,749,0,24,a0
750,750,0,19,a5
751,751,0,11,aa
752,752,0,0a,af
753,753,0,04,b4
754,754,0,01,b9
755,755,0,00,be
756,756,0,00,c3
757,757,0,02,c8
758,758,0,07,cd
759,759,0,0d,d2
760,760,0,15,d7
761,761,0,1e,dc
762,762,0,29,e1
763,763,0,36,e6
764,764,0,43,eb
765,765,0,51,f0
766,766,0,60,f5
767,767,0,70,fa
768,768,0,7f,ff
769,769,0,8c,04
770,770,0,9c,09
771,771,0,ab,0e
772,772,0,b9,13
773,773,0,c7,18
774,774,0,d3,1d
775,775,0,df,22
776,776,0,e8,27
777,777,0,f1,2c
778,778,0,f7,31
779,779,0,fc,36
780,780,0,ff,3b
781,781,0,ff,40
782,782,0,fe,45
783,783,0,fb,4a
784,784,0,f7,4f
785,785,0,f0,54
786,786,0,e8,59
787,787,0,de,5e
788,788,0,d2,63
789,789,0,c6,68
790,790,0,b8,6d
791,791,0,a9,72
792,792,0,9a,77
793,793,0,8b,7c
794,794,0,7b,81
795,795,0,6b,86
796,796,0,5c,8b
797,797,0,4d,90
798,798,0,3f,95
799,799,0,32,9a
800,800,0,26,9f
801,801,0,1b,a4
802,802,0,12,a9
803,803,0,0b,ae
804,804,0,05,b3
805,805,0,02,b8
806,806,0,00,bd
807,807,0,00,c2
808,808,0,02,c7
809,809,0,06,cc
810,810,0,0c,d1
811,811,0,13,d6
812,812,0,1c,db
813,813,0,27,e0
814,814,0,33,e5
815,815,0,40,ea
816,816,0,4e,ef
817,817,0,5d,f4
818,818,0,6d,f9
819,819,0,7c,fe
820,820,0,89,03
821,821,0,99,08
822,822,0,a8,0d
823,823,0,b6,12
824,824,0,c4,17
825,825,0,d1,1c
826,826,0,dc,21
827,827,0,e7,26
828,828,0,ef,2b
829,829,0,f6,30
830,830,0,fb,35
831,831,0,fe,3a
832,832,0,ff,3f
833,833,0,ff,44
834,834,0,fc,49
835,835,0,f8,4e
836,836,0,f1,53
837,837,0,e9,58
838,838,0,e0,5d
839,839,0,d5,62
840,840,0,c8,67
841,841,0,bb,6c
842,842,0,ac,71
843,843,0,9d,76
844,844,0,8e,7b
845,845,0,7e,80
846,846,0,6e,85
847,847,0,5f,8a
848,848,0,50,8f
849,849,0,42,94
850,850,0,34,99
851,851,0,28,9e
852,852,0,1d,a3
853,853,0,14,a8
854,854,0,0c,ad
855,855,0,06,b2
856,856,0,02,b7
857,857,0,00,bc
858,858,0,00,c1
859,859,0,01,c6
860,860,0,05,cb
861,861,0,0a,d0
862,862,0,11,d5
863,863,0,1a,da
864,864,0,25,df
865,865,0,30,e4
866,866,0,3d,e9
867,867,0,4b,ee
868,868,0,5a,f3
869,869,0,6a,f8
870,870,0,79,fd
871,871,0,86,02
872,872,0,95,07
873,873,0,a5,0c
874,874,0,b4,11
875,875,0,c2,16
876,876,0,cf,1b
877,877,0,da,20
878,878,0,e5,25
879,879,0,ee,2a
880,880,0,f5,2f
881,881,0,fa,34
882,882,0,fe,39
883,883,0,ff,3e
884,884,0,ff,43
885,885,0,fd,48
886,886,0,f9,4d
887,887,0,f3,52
888,888,0,eb,57
889,889,0,e2,5c
890,890,0,d7,61
891,891,0,cb,66
892,892,0,bd,6b
893,893,0,af,70
894,894,0,a0,75
895,895,0,91,7a
896,896,0,81,7f
897,897,0,71,84
898,898,0,62,89
899,899,0,53,8e
900,900,0,44,93
901,901,0,37,98
902,902,0,2a,9d
903,903,0,1f,a2
904,904,0,16,a7
905,905,0,0e,ac
906,906,0,07,b1
907,907,0,03,b6
908,908,0,00,bb
909,909,0,00,c0
910,910,0,01,c5
911,911,0,04,ca
912,912,0,09,cf
913,913,0,10,d4
914,914,0,18,d9
915,915,0,23,de
916,916,0,2e,e3
917,917,0,3b,e8
918,918,0,49,ed
919,919,0,57,f2
920,920,0,66,f7
921,921,0,76,fc
922,922,0,83,01
923,923,0,92,06
924,924,0,a2,0b
925,925,0,b1,10
926,926,0,bf,15
927,927,0,cc,1a
928,928,0,d8,1f
929,929,0,e3,24
930,930,0,ec,29
931,931,0,f3,2e
932,932,0,f9,33
933,933,0,fd,38
934,934,0,ff,3d
935,935,0,ff,42
936,936,0,fd,47
937,937,0,fa,4c
938,938,0,f4,51
939,939,0,ed,56
940,940,0,e4,5b
941,941,0,d9,60
942,942,0,cd,65
943,943,0,c0,6a
944,944,0,b2,6f
945,945,0,a3,74
946,946,0,94,79
947,947,0,84,7e
948,948,0,74,83
949,949,0,65,88
950,950,0,56,8d
951,951,0,47,92
952,952,0,39,97
953,953,0,2d,9c
954,954,0,21,a1
955,955,0,17,a6
956,956,0,0f,ab
957,957,0,08,b0
958,958,0,04,b5
959,959,0,01,ba
960,960,0,00,bf
961,961,0,00,c4
962,962,0,03,c9
963,963,0,08,ce
964,964,0,0e,d3
965,965,0,17,d8
966,966,0,20,dd
967,967,0,2c,e2
968,968,0,38,e7
969,969,0,46,ec
970,970,0,54,f1
971,971,0,63,f6
972,972,0,73,fb
973,973,0,7f,00
974,974,0,8f,05
975,975,0,9f,0a
976,976,0,ae,0f
977,977,0,bc,14
978,978,0,c9,19
979,979,0,d6,1e
980,980,0,e1,23
981,981,0,ea,28
982,982,0,f2,2d
983,983,0,f8,32
984,984,0,fd,37
985,985,0,ff,3c
986,986,0,ff,41
987,987,0,fe,46
988,988,0,fb,4b
989,989,0,f5,50
990,990,0,ee,55
991,991,0,e6,5a
992,992,0,db,5f
993,993,0,d0,64
994,994,0,c3,69
995,995,0,b5,6e
996,996,0,a6,73
997,997,0,97,78
998,998,0,87,7d
999,999,0,78,82
1000,1000,0,68,87
1001,1001,0,59,8c
1002,1002,0,4a,91
1003,1003,0,3c,96
1004,1004,0,2f,9b
1005,1005,0,24,a0
1006,1006,0,19,a5
1007,1007,0,11,aa
1008,1008,0,0a,af
1009,1009,0,04,b4
1010,1010,0,01,b9
1011,1011,0,00,be
1012,1012,0,00,c3
1013,1013,0,02,c8
1014,1014,0,07,cd
1015,1015,0,0d,d2
1016,1016,0,15,d7
1017,1017,0,1e,dc
1018,1018,0,29,e1
1019,1019,0,36,e6
1020,1020,0,43,eb
1021,1021,0,51,f0
1022,1022,0,60,f5
1023,1023,0,70,fa
